X--Trace 1::[I(C2:1) | I(PR2)];Y--Trace 1::[I(C2:1) | I(PR2)];;X--Trace 2::[V(out2) | V(PR1)];Y--Trace 2::[V(out2) | V(PR1)]
1.00005E-05;-0.007348775;;1.00005E-05;10.65533602
1.00015E-05;-0.007348777;;1.00015E-05;10.65199566
1.00025E-05;-0.007348779;;1.00025E-05;10.64865531
1.00035E-05;-0.007348781;;1.00035E-05;10.64531496
1.00045E-05;-0.007348783;;1.00045E-05;10.6419746
1.00055E-05;-0.007348786;;1.00055E-05;10.63863424
1.00065E-05;-0.007348788;;1.00065E-05;10.63529389
1.00075E-05;-0.00734879;;1.00075E-05;10.63195353
1.00085E-05;-0.007348792;;1.00085E-05;10.62861317
1.00095E-05;-0.007348795;;1.00095E-05;10.62527281
1.00105E-05;-0.007348797;;1.00105E-05;10.62193245
1.00115E-05;-0.007348799;;1.00115E-05;10.61859208
1.00125E-05;-0.007348801;;1.00125E-05;10.61525172
1.00135E-05;-0.007348803;;1.00135E-05;10.61191135
1.00145E-05;-0.007348805;;1.00145E-05;10.60857099
1.00155E-05;-0.007348808;;1.00155E-05;10.60523062
1.00165E-05;-0.00734881;;1.00165E-05;10.60189025
1.00175E-05;-0.007348812;;1.00175E-05;10.59854989
1.00185E-05;-0.007348814;;1.00185E-05;10.59520952
1.00195E-05;-0.007348816;;1.00195E-05;10.59186915
1.00205E-05;-0.007348818;;1.00205E-05;10.58852878
1.00215E-05;-0.00734882;;1.00215E-05;10.5851884
1.00225E-05;-0.007348822;;1.00225E-05;10.58184803
1.00235E-05;-0.007348825;;1.00235E-05;10.57850765
1.00245E-05;-0.007348827;;1.00245E-05;10.57516728
1.00255E-05;-0.007348829;;1.00255E-05;10.5718269
1.00265E-05;-0.007348831;;1.00265E-05;10.56848653
1.0027E-05;-0.007348832;;1.0027E-05;10.56681634
1.00275E-05;-0.007348833;;1.00275E-05;10.56514615
1.00276E-05;-0.007348833;;1.00276E-05;10.56491224
1.00277E-05;-0.007348833;;1.00277E-05;10.56444443
1.00278E-05;-0.007348834;;1.00278E-05;10.56404502
1.00279E-05;-0.007348834;;1.00279E-05;10.56377629
1.0028E-05;-0.007348834;;1.0028E-05;10.56352613
1.00281E-05;-0.007348834;;1.00281E-05;10.56302581
1.00283E-05;-0.007348835;;1.00283E-05;10.56247652
1.00286E-05;-0.007348835;;1.00286E-05;10.56137796
1.00293E-05;-0.007348837;;1.00293E-05;10.55918082
1.00303E-05;-0.007348839;;1.00303E-05;10.55584044
1.00313E-05;-0.007348841;;1.00313E-05;10.55250006
1.00323E-05;-0.007348843;;1.00323E-05;10.54915967
1.00333E-05;-0.007348845;;1.00333E-05;10.54581929
1.00343E-05;-0.007348847;;1.00343E-05;10.5424789
1.00352E-05;-0.007348849;;1.00352E-05;10.53930554
1.00362E-05;-0.007348851;;1.00362E-05;10.53596515
1.00372E-05;-0.007348853;;1.00372E-05;10.53262476
1.00382E-05;-0.007348855;;1.00382E-05;10.52928438
1.00392E-05;-0.007348857;;1.00392E-05;10.52594399
1.00402E-05;-0.007348859;;1.00402E-05;10.5226036
1.00412E-05;-0.007348861;;1.00412E-05;10.51926321
1.00422E-05;-0.007348863;;1.00422E-05;10.51592282
1.00432E-05;-0.007348865;;1.00432E-05;10.51258242
1.00442E-05;-0.007348867;;1.00442E-05;10.50924203
1.00452E-05;-0.007348869;;1.00452E-05;10.50590163
1.00462E-05;-0.007348871;;1.00462E-05;10.50256124
1.00472E-05;-0.007348873;;1.00472E-05;10.49922084
1.00482E-05;-0.007348875;;1.00482E-05;10.49588045
1.00492E-05;-0.007348877;;1.00492E-05;10.49254005
1.00502E-05;-0.007348879;;1.00502E-05;10.48919965
1.00512E-05;-0.007348881;;1.00512E-05;10.48585925
1.00522E-05;-0.007348883;;1.00522E-05;10.48251885
1.00532E-05;-0.007348885;;1.00532E-05;10.47917845
1.00542E-05;-0.007348886;;1.00542E-05;10.47583804
1.00552E-05;-0.007348888;;1.00552E-05;10.47249764
1.00562E-05;-0.00734889;;1.00562E-05;10.46915724
1.00572E-05;-0.007348892;;1.00572E-05;10.46581683
1.00582E-05;-0.007348894;;1.00582E-05;10.46247643
1.00592E-05;-0.007348896;;1.00592E-05;10.45913602
1.00602E-05;-0.007348898;;1.00602E-05;10.45579561
1.00612E-05;-0.0073489;;1.00612E-05;10.4524552
1.00622E-05;-0.007348902;;1.00622E-05;10.44911479
1.00632E-05;-0.007348903;;1.00632E-05;10.44577438
1.00642E-05;-0.007348905;;1.00642E-05;10.44243397
1.00652E-05;-0.007348907;;1.00652E-05;10.43909356
1.00662E-05;-0.007348909;;1.00662E-05;10.43575315
1.00672E-05;-0.007348911;;1.00672E-05;10.43241273
1.00682E-05;-0.007348913;;1.00682E-05;10.42907232
1.00692E-05;-0.007348915;;1.00692E-05;10.4257319
1.00702E-05;-0.007348916;;1.00702E-05;10.42239149
1.00712E-05;-0.007348918;;1.00712E-05;10.41905107
1.00722E-05;-0.00734892;;1.00722E-05;10.41571065
1.00732E-05;-0.007348922;;1.00732E-05;10.41237023
1.00742E-05;-0.007348924;;1.00742E-05;10.40902981
1.00752E-05;-0.007348925;;1.00752E-05;10.40568939
1.00762E-05;-0.007348927;;1.00762E-05;10.40234897
1.00772E-05;-0.007348929;;1.00772E-05;10.39900855
1.00782E-05;-0.007348931;;1.00782E-05;10.39566813
1.00792E-05;-0.007348933;;1.00792E-05;10.3923277
1.00802E-05;-0.007348934;;1.00802E-05;10.38898728
1.00812E-05;-0.007348936;;1.00812E-05;10.38564686
1.00822E-05;-0.007348938;;1.00822E-05;10.38230643
1.00832E-05;-0.00734894;;1.00832E-05;10.378966
1.00842E-05;-0.007348941;;1.00842E-05;10.37562558
1.00852E-05;-0.007348943;;1.00852E-05;10.37228515
1.00862E-05;-0.007348945;;1.00862E-05;10.36894472
1.00872E-05;-0.007348947;;1.00872E-05;10.36560429
1.00882E-05;-0.007348948;;1.00882E-05;10.36226386
1.00892E-05;-0.00734895;;1.00892E-05;10.35892343
1.00902E-05;-0.007348952;;1.00902E-05;10.35558299
1.00912E-05;-0.007348953;;1.00912E-05;10.35224256
1.00922E-05;-0.007348955;;1.00922E-05;10.34890213
1.00932E-05;-0.007348957;;1.00932E-05;10.34556169
1.00942E-05;-0.007348958;;1.00942E-05;10.34222126
1.00952E-05;-0.00734896;;1.00952E-05;10.33888082
1.00962E-05;-0.007348962;;1.00962E-05;10.33554038
1.00972E-05;-0.007348963;;1.00972E-05;10.33219995
1.00982E-05;-0.007348965;;1.00982E-05;10.32885951
1.00992E-05;-0.007348967;;1.00992E-05;10.32551907
1.01002E-05;-0.007348968;;1.01002E-05;10.32217863
1.01012E-05;-0.00734897;;1.01012E-05;10.31883819
1.01022E-05;-0.007348972;;1.01022E-05;10.31549775
1.01032E-05;-0.007348973;;1.01032E-05;10.31215731
1.01042E-05;-0.007348975;;1.01042E-05;10.30881686
1.01052E-05;-0.007348977;;1.01052E-05;10.30547642
1.01062E-05;-0.007348978;;1.01062E-05;10.30213598
1.01072E-05;-0.00734898;;1.01072E-05;10.29879553
1.01082E-05;-0.007348981;;1.01082E-05;10.29545508
1.01092E-05;-0.007348983;;1.01092E-05;10.29211464
1.01102E-05;-0.007348984;;1.01102E-05;10.28877419
1.01112E-05;-0.007348986;;1.01112E-05;10.28543374
1.01122E-05;-0.007348988;;1.01122E-05;10.28209329
1.01132E-05;-0.007348989;;1.01132E-05;10.27875285
1.01142E-05;-0.007348991;;1.01142E-05;10.2754124
1.01152E-05;-0.007348992;;1.01152E-05;10.27207194
1.01162E-05;-0.007348994;;1.01162E-05;10.26873149
1.01172E-05;-0.007348995;;1.01172E-05;10.26539104
1.01182E-05;-0.007348997;;1.01182E-05;10.26205059
1.01192E-05;-0.007348998;;1.01192E-05;10.25871014
1.01202E-05;-0.007349;;1.01202E-05;10.25536968
1.01212E-05;-0.007349001;;1.01212E-05;10.25202923
1.01222E-05;-0.007349003;;1.01222E-05;10.24868877
1.01232E-05;-0.007349004;;1.01232E-05;10.24534831
1.01242E-05;-0.007349006;;1.01242E-05;10.24200786
1.01252E-05;-0.007349007;;1.01252E-05;10.2386674
1.01262E-05;-0.007349009;;1.01262E-05;10.23532694
1.01272E-05;-0.00734901;;1.01272E-05;10.23198648
1.01282E-05;-0.007349012;;1.01282E-05;10.22864602
1.01292E-05;-0.007349013;;1.01292E-05;10.22530556
1.01302E-05;-0.007349015;;1.01302E-05;10.2219651
1.01312E-05;-0.007349016;;1.01312E-05;10.21862464
1.01322E-05;-0.007349018;;1.01322E-05;10.21528418
1.01332E-05;-0.007349019;;1.01332E-05;10.21194371
1.01342E-05;-0.007349021;;1.01342E-05;10.20860325
1.01352E-05;-0.007349022;;1.01352E-05;10.20526279
1.01362E-05;-0.007349023;;1.01362E-05;10.20192232
1.01372E-05;-0.007349025;;1.01372E-05;10.19858186
1.01382E-05;-0.007349026;;1.01382E-05;10.19524139
1.01392E-05;-0.007349028;;1.01392E-05;10.19190092
1.01402E-05;-0.007349029;;1.01402E-05;10.18856046
1.01412E-05;-0.00734903;;1.01412E-05;10.18521999
1.01422E-05;-0.007349032;;1.01422E-05;10.18187952
1.01432E-05;-0.007349033;;1.01432E-05;10.17853905
1.01442E-05;-0.007349035;;1.01442E-05;10.17519858
1.01452E-05;-0.007349036;;1.01452E-05;10.17185811
1.01462E-05;-0.007349037;;1.01462E-05;10.16851764
1.01472E-05;-0.007349039;;1.01472E-05;10.16517717
1.01482E-05;-0.00734904;;1.01482E-05;10.16183669
1.01492E-05;-0.007349041;;1.01492E-05;10.15849622
1.01502E-05;-0.007349043;;1.01502E-05;10.15515575
1.01512E-05;-0.007349044;;1.01512E-05;10.15181527
1.01522E-05;-0.007349045;;1.01522E-05;10.1484748
1.01532E-05;-0.007349047;;1.01532E-05;10.14513432
1.01542E-05;-0.007349048;;1.01542E-05;10.14179385
1.01552E-05;-0.007349049;;1.01552E-05;10.13845337
1.01562E-05;-0.007349051;;1.01562E-05;10.13511289
1.01572E-05;-0.007349052;;1.01572E-05;10.13177242
1.01582E-05;-0.007349053;;1.01582E-05;10.12843194
1.01592E-05;-0.007349054;;1.01592E-05;10.12509146
1.01602E-05;-0.007349056;;1.01602E-05;10.12175098
1.01612E-05;-0.007349057;;1.01612E-05;10.1184105
1.01622E-05;-0.007349058;;1.01622E-05;10.11507002
1.01632E-05;-0.007349059;;1.01632E-05;10.11172954
1.01642E-05;-0.007349061;;1.01642E-05;10.10838905
1.01652E-05;-0.007349062;;1.01652E-05;10.10504857
1.01662E-05;-0.007349063;;1.01662E-05;10.10170809
1.01672E-05;-0.007349064;;1.01672E-05;10.09836761
1.01682E-05;-0.007349066;;1.01682E-05;10.09502712
1.01692E-05;-0.007349067;;1.01692E-05;10.09168664
1.01702E-05;-0.007349068;;1.01702E-05;10.08834615
1.01712E-05;-0.007349069;;1.01712E-05;10.08500567
1.01722E-05;-0.007349071;;1.01722E-05;10.08166518
1.01732E-05;-0.007349072;;1.01732E-05;10.07832469
1.01742E-05;-0.007349073;;1.01742E-05;10.07498421
1.01752E-05;-0.007349074;;1.01752E-05;10.07164372
1.01762E-05;-0.007349075;;1.01762E-05;10.06830323
1.01772E-05;-0.007349076;;1.01772E-05;10.06496274
1.01782E-05;-0.007349078;;1.01782E-05;10.06162225
1.01792E-05;-0.007349079;;1.01792E-05;10.05828176
1.01802E-05;-0.00734908;;1.01802E-05;10.05494127
1.01812E-05;-0.007349081;;1.01812E-05;10.05160078
1.01822E-05;-0.007349082;;1.01822E-05;10.04826029
1.01832E-05;-0.007349083;;1.01832E-05;10.04491979
1.01842E-05;-0.007349085;;1.01842E-05;10.0415793
1.01852E-05;-0.007349086;;1.01852E-05;10.03823881
1.01862E-05;-0.007349087;;1.01862E-05;10.03489832
1.01872E-05;-0.007349088;;1.01872E-05;10.03155782
1.01882E-05;-0.007349089;;1.01882E-05;10.02821733
1.01892E-05;-0.00734909;;1.01892E-05;10.02487683
1.01902E-05;-0.007349091;;1.01902E-05;10.02153634
1.01912E-05;-0.007349092;;1.01912E-05;10.01819584
1.01922E-05;-0.007349093;;1.01922E-05;10.01485534
1.01932E-05;-0.007349094;;1.01932E-05;10.01151485
1.01942E-05;-0.007349096;;1.01942E-05;10.00817435
1.01952E-05;-0.007349097;;1.01952E-05;10.00483385
1.01962E-05;-0.007349098;;1.01962E-05;10.00149335
1.01972E-05;-0.007349099;;1.01972E-05;9.998152851
1.01982E-05;-0.0073491;;1.01982E-05;9.994812351
1.01992E-05;-0.007349101;;1.01992E-05;9.991471851
1.02002E-05;-0.007349102;;1.02002E-05;9.988131351
1.02012E-05;-0.007349103;;1.02012E-05;9.98479085
1.02022E-05;-0.007349104;;1.02022E-05;9.981450348
1.02032E-05;-0.007349105;;1.02032E-05;9.978109846
1.02042E-05;-0.007349106;;1.02042E-05;9.974769343
1.02052E-05;-0.007349107;;1.02052E-05;9.97142884
1.02062E-05;-0.007349108;;1.02062E-05;9.968088337
1.02072E-05;-0.007349109;;1.02072E-05;9.964747833
1.02082E-05;-0.00734911;;1.02082E-05;9.961407329
1.02092E-05;-0.007349111;;1.02092E-05;9.958066824
1.02102E-05;-0.007349112;;1.02102E-05;9.954726319
1.02112E-05;-0.007349113;;1.02112E-05;9.951385813
1.02122E-05;-0.007349114;;1.02122E-05;9.948045307
1.02132E-05;-0.007349115;;1.02132E-05;9.9447048
1.02142E-05;-0.007349116;;1.02142E-05;9.941364293
1.02152E-05;-0.007349117;;1.02152E-05;9.938023785
1.02162E-05;-0.007349118;;1.02162E-05;9.934683278
1.02172E-05;-0.007349119;;1.02172E-05;9.931342769
1.02182E-05;-0.00734912;;1.02182E-05;9.92800226
1.02192E-05;-0.007349121;;1.02192E-05;9.924661751
1.02202E-05;-0.007349122;;1.02202E-05;9.921321241
1.02212E-05;-0.007349123;;1.02212E-05;9.917980731
1.02222E-05;-0.007349124;;1.02222E-05;9.914640221
1.02232E-05;-0.007349125;;1.02232E-05;9.91129971
1.02242E-05;-0.007349125;;1.02242E-05;9.907959199
1.02252E-05;-0.007349126;;1.02252E-05;9.904618687
1.02262E-05;-0.007349127;;1.02262E-05;9.901278175
1.02272E-05;-0.007349128;;1.02272E-05;9.897937662
1.02282E-05;-0.007349129;;1.02282E-05;9.894597149
1.02292E-05;-0.00734913;;1.02292E-05;9.891256636
1.02302E-05;-0.007349131;;1.02302E-05;9.887916122
1.02312E-05;-0.007349132;;1.02312E-05;9.884575608
1.02322E-05;-0.007349133;;1.02322E-05;9.881235093
1.02332E-05;-0.007349133;;1.02332E-05;9.877894578
1.02342E-05;-0.007349134;;1.02342E-05;9.874554063
1.02352E-05;-0.007349135;;1.02352E-05;9.871213547
1.02362E-05;-0.007349136;;1.02362E-05;9.867873031
1.02372E-05;-0.007349137;;1.02372E-05;9.864532514
1.02382E-05;-0.007349138;;1.02382E-05;9.861191997
1.02392E-05;-0.007349139;;1.02392E-05;9.85785148
1.02402E-05;-0.007349139;;1.02402E-05;9.854510962
1.02412E-05;-0.00734914;;1.02412E-05;9.851170444
1.02422E-05;-0.007349141;;1.02422E-05;9.847829925
1.02432E-05;-0.007349142;;1.02432E-05;9.844489407
1.02442E-05;-0.007349143;;1.02442E-05;9.841148887
1.02452E-05;-0.007349144;;1.02452E-05;9.837808368
1.02462E-05;-0.007349144;;1.02462E-05;9.834467848
1.02472E-05;-0.007349145;;1.02472E-05;9.831127327
1.02482E-05;-0.007349146;;1.02482E-05;9.827786807
1.02492E-05;-0.007349147;;1.02492E-05;9.824446286
1.02502E-05;-0.007349147;;1.02502E-05;9.821105764
1.02512E-05;-0.007349148;;1.02512E-05;9.817765243
1.02522E-05;-0.007349149;;1.02522E-05;9.81442472
1.02532E-05;-0.00734915;;1.02532E-05;9.811084198
1.02542E-05;-0.007349151;;1.02542E-05;9.807743675
1.02552E-05;-0.007349151;;1.02552E-05;9.804403152
1.02562E-05;-0.007349152;;1.02562E-05;9.801062628
1.02572E-05;-0.007349153;;1.02572E-05;9.797722105
1.02582E-05;-0.007349154;;1.02582E-05;9.79438158
1.02592E-05;-0.007349154;;1.02592E-05;9.791041056
1.02602E-05;-0.007349155;;1.02602E-05;9.787700531
1.02612E-05;-0.007349156;;1.02612E-05;9.784360006
1.02622E-05;-0.007349157;;1.02622E-05;9.78101948
1.02632E-05;-0.007349157;;1.02632E-05;9.777678955
1.02642E-05;-0.007349158;;1.02642E-05;9.774338428
1.02652E-05;-0.007349159;;1.02652E-05;9.770997902
1.02662E-05;-0.007349159;;1.02662E-05;9.767657375
1.02672E-05;-0.00734916;;1.02672E-05;9.764316848
1.02682E-05;-0.007349161;;1.02682E-05;9.76097632
1.02692E-05;-0.007349161;;1.02692E-05;9.757635793
1.02702E-05;-0.007349162;;1.02702E-05;9.754295265
1.02712E-05;-0.007349163;;1.02712E-05;9.750954736
1.02722E-05;-0.007349163;;1.02722E-05;9.747614208
1.02732E-05;-0.007349164;;1.02732E-05;9.744273679
1.02742E-05;-0.007349165;;1.02742E-05;9.740933149
1.02752E-05;-0.007349165;;1.02752E-05;9.73759262
1.02762E-05;-0.007349166;;1.02762E-05;9.73425209
1.02772E-05;-0.007349167;;1.02772E-05;9.73091156
1.02782E-05;-0.007349167;;1.02782E-05;9.727571029
1.02792E-05;-0.007349168;;1.02792E-05;9.724230498
1.02802E-05;-0.007349169;;1.02802E-05;9.720889967
1.02812E-05;-0.007349169;;1.02812E-05;9.717549436
1.02822E-05;-0.00734917;;1.02822E-05;9.714208904
1.02832E-05;-0.007349171;;1.02832E-05;9.710868372
1.02842E-05;-0.007349171;;1.02842E-05;9.70752784
1.02852E-05;-0.007349172;;1.02852E-05;9.704187308
1.02862E-05;-0.007349172;;1.02862E-05;9.700846775
1.02872E-05;-0.007349173;;1.02872E-05;9.697506242
1.02882E-05;-0.007349174;;1.02882E-05;9.694165708
1.02892E-05;-0.007349174;;1.02892E-05;9.690825175
1.02902E-05;-0.007349175;;1.02902E-05;9.687484641
1.02912E-05;-0.007349175;;1.02912E-05;9.684144107
1.02922E-05;-0.007349176;;1.02922E-05;9.680803572
1.02932E-05;-0.007349177;;1.02932E-05;9.677463038
1.02942E-05;-0.007349177;;1.02942E-05;9.674122503
1.02952E-05;-0.007349178;;1.02952E-05;9.670781968
1.02962E-05;-0.007349178;;1.02962E-05;9.667441432
1.02972E-05;-0.007349179;;1.02972E-05;9.664100897
1.02982E-05;-0.007349179;;1.02982E-05;9.660760361
1.02992E-05;-0.00734918;;1.02992E-05;9.657419824
1.03002E-05;-0.00734918;;1.03002E-05;9.654079288
1.03012E-05;-0.007349181;;1.03012E-05;9.650738751
1.03022E-05;-0.007349181;;1.03022E-05;9.647398214
1.03032E-05;-0.007349182;;1.03032E-05;9.644057677
1.03042E-05;-0.007349183;;1.03042E-05;9.64071714
1.03052E-05;-0.007349183;;1.03052E-05;9.637376602
1.03062E-05;-0.007349184;;1.03062E-05;9.634036064
1.03072E-05;-0.007349184;;1.03072E-05;9.630695526
1.03082E-05;-0.007349185;;1.03082E-05;9.627354988
1.03092E-05;-0.007349185;;1.03092E-05;9.624014449
1.03102E-05;-0.007349186;;1.03102E-05;9.620673911
1.03112E-05;-0.007349186;;1.03112E-05;9.617333372
1.03122E-05;-0.007349187;;1.03122E-05;9.613992832
1.03132E-05;-0.007349187;;1.03132E-05;9.610652293
1.03142E-05;-0.007349188;;1.03142E-05;9.607311753
1.03152E-05;-0.007349188;;1.03152E-05;9.603971213
1.03162E-05;-0.007349188;;1.03162E-05;9.600630673
1.03172E-05;-0.007349189;;1.03172E-05;9.597290133
1.03182E-05;-0.007349189;;1.03182E-05;9.593949592
1.03192E-05;-0.00734919;;1.03192E-05;9.590609052
1.03202E-05;-0.00734919;;1.03202E-05;9.587268511
1.03212E-05;-0.007349191;;1.03212E-05;9.58392797
1.03222E-05;-0.007349191;;1.03222E-05;9.580587428
1.03232E-05;-0.007349192;;1.03232E-05;9.577246887
1.03242E-05;-0.007349192;;1.03242E-05;9.573906345
1.03252E-05;-0.007349192;;1.03252E-05;9.570565803
1.03262E-05;-0.007349193;;1.03262E-05;9.567225261
1.03272E-05;-0.007349193;;1.03272E-05;9.563884719
1.03282E-05;-0.007349194;;1.03282E-05;9.560544176
1.03292E-05;-0.007349194;;1.03292E-05;9.557203633
1.03302E-05;-0.007349195;;1.03302E-05;9.553863091
1.03312E-05;-0.007349195;;1.03312E-05;9.550522547
1.03322E-05;-0.007349195;;1.03322E-05;9.547182004
1.03332E-05;-0.007349196;;1.03332E-05;9.543841461
1.03342E-05;-0.007349196;;1.03342E-05;9.540500917
1.03352E-05;-0.007349196;;1.03352E-05;9.537160373
1.03362E-05;-0.007349197;;1.03362E-05;9.53381983
1.03372E-05;-0.007349197;;1.03372E-05;9.530479285
1.03382E-05;-0.007349198;;1.03382E-05;9.527138741
1.03392E-05;-0.007349198;;1.03392E-05;9.523798197
1.03402E-05;-0.007349198;;1.03402E-05;9.520457652
1.03412E-05;-0.007349199;;1.03412E-05;9.517117107
1.03422E-05;-0.007349199;;1.03422E-05;9.513776562
1.03432E-05;-0.007349199;;1.03432E-05;9.510436017
1.03442E-05;-0.0073492;;1.03442E-05;9.507095472
1.03452E-05;-0.0073492;;1.03452E-05;9.503754927
1.03462E-05;-0.0073492;;1.03462E-05;9.500414381
1.03472E-05;-0.007349201;;1.03472E-05;9.497073835
1.03482E-05;-0.007349201;;1.03482E-05;9.49373329
1.03492E-05;-0.007349201;;1.03492E-05;9.490392744
1.03502E-05;-0.007349202;;1.03502E-05;9.487052198
1.03512E-05;-0.007349202;;1.03512E-05;9.483711651
1.03522E-05;-0.007349202;;1.03522E-05;9.480371105
1.03532E-05;-0.007349203;;1.03532E-05;9.477030558
1.03542E-05;-0.007349203;;1.03542E-05;9.473690012
1.03552E-05;-0.007349203;;1.03552E-05;9.470349465
1.03562E-05;-0.007349203;;1.03562E-05;9.467008918
1.03572E-05;-0.007349204;;1.03572E-05;9.463668371
1.03582E-05;-0.007349204;;1.03582E-05;9.460327824
1.03592E-05;-0.007349204;;1.03592E-05;9.456987276
1.03602E-05;-0.007349205;;1.03602E-05;9.453646729
1.03612E-05;-0.007349205;;1.03612E-05;9.450306181
1.03622E-05;-0.007349205;;1.03622E-05;9.446965633
1.03632E-05;-0.007349205;;1.03632E-05;9.443625086
1.03642E-05;-0.007349206;;1.03642E-05;9.440284538
1.03652E-05;-0.007349206;;1.03652E-05;9.43694399
1.03662E-05;-0.007349206;;1.03662E-05;9.433603441
1.03672E-05;-0.007349206;;1.03672E-05;9.430262893
1.03682E-05;-0.007349207;;1.03682E-05;9.426922345
1.03692E-05;-0.007349207;;1.03692E-05;9.423581796
1.03702E-05;-0.007349207;;1.03702E-05;9.420241248
1.03712E-05;-0.007349207;;1.03712E-05;9.416900699
1.03722E-05;-0.007349207;;1.03722E-05;9.41356015
1.03732E-05;-0.007349208;;1.03732E-05;9.410219601
1.03742E-05;-0.007349208;;1.03742E-05;9.406879052
1.03752E-05;-0.007349208;;1.03752E-05;9.403538503
1.03762E-05;-0.007349208;;1.03762E-05;9.400197954
1.03772E-05;-0.007349209;;1.03772E-05;9.396857405
1.03782E-05;-0.007349209;;1.03782E-05;9.393516855
1.03792E-05;-0.007349209;;1.03792E-05;9.390176306
1.03802E-05;-0.007349209;;1.03802E-05;9.386835756
1.03812E-05;-0.007349209;;1.03812E-05;9.383495207
1.03822E-05;-0.007349209;;1.03822E-05;9.380154657
1.03832E-05;-0.00734921;;1.03832E-05;9.376814107
1.03842E-05;-0.00734921;;1.03842E-05;9.373473557
1.03852E-05;-0.00734921;;1.03852E-05;9.370133007
1.03862E-05;-0.00734921;;1.03862E-05;9.366792457
1.03872E-05;-0.00734921;;1.03872E-05;9.363451907
1.03882E-05;-0.00734921;;1.03882E-05;9.360111357
1.03892E-05;-0.007349211;;1.03892E-05;9.356770807
1.03902E-05;-0.007349211;;1.03902E-05;9.353430257
